
T2D9C 000:056 SEGGER J-Link V6.16 Log File (0002ms, 0039ms total)
T2D9C 000:056 DLL Compiled: Jun  2 2017 17:45:04 (0002ms, 0039ms total)
T2D9C 000:056 Logging started @ 2018-05-05 08:57 (0002ms, 0039ms total)
T2D9C 000:058 JLINK_SetWarnOutHandler(...) (0000ms, 0039ms total)
T2D9C 000:058 JLINK_OpenEx(...)
Firmware: J-Link OB-STM32F072-CortexM compiled Mar  8 2020 11:15:54
Hardware: V1.00
Feature(s): GDB, RDI, FlashBP, FlashDL, JFlash, RDDIWEBSRV Webserver running on local port 19080 (0023ms, 0062ms total)
T2D9C 000:058   returns O.K. (0023ms, 0062ms total)
T2D9C 000:081 JLINK_SetErrorOutHandler(...) (0000ms, 0062ms total)
T2D9C 000:081 JLINK_ExecCommand("ProjectFile = "D:\00\F103DTU NOrecord\F103DTU_norecord\MDK-ARM\JLinkSettings.ini"", ...). C:\Program Files (x86)\SEGGER\JLink_V616\JLinkDevices.xml evaluated successfully.  returns 0x00 (0086ms, 0148ms total)
T2D9C 000:169 JLINK_ExecCommand("Device = STM32F103RE", ...). Device "STM32F103RE" selected.  returns 0x00 (0004ms, 0152ms total)
T2D9C 000:173 JLINK_ExecCommand("DisableConnectionTimeout", ...).   returns 0x01 (0000ms, 0152ms total)
T2D9C 000:173 JLINK_GetHardwareVersion()  returns 0x2710 (0000ms, 0152ms total)
T2D9C 000:173 JLINK_GetDLLVersion()  returns 61600 (0000ms, 0152ms total)
T2D9C 000:173 JLINK_GetFirmwareString(...) (0000ms, 0152ms total)
T2D9C 000:179 JLINK_GetDLLVersion()  returns 61600 (0000ms, 0152ms total)
T2D9C 000:179 JLINK_GetCompileDateTime() (0000ms, 0152ms total)
T2D9C 000:181 JLINK_GetFirmwareString(...) (0000ms, 0152ms total)
T2D9C 000:183 JLINK_GetHardwareVersion()  returns 0x2710 (0000ms, 0152ms total)
T2D9C 000:188 JLINK_TIF_Select(JLINKARM_TIF_SWD)  returns 0x00 (0006ms, 0158ms total)
T2D9C 000:194 JLINK_SetSpeed(5000) (0001ms, 0159ms total)
T2D9C 000:195 JLINK_GetId() >0x10B TIF>Found SW-DP with ID 0x1BA01477 >0x0D TIF> >0x28 TIF> >0x0D TIF> >0x28 TIF> >0x0D TIF> >0x28 TIF> >0x0D TIF> >0x28 TIF> >0x0D TIF> >0x21 TIF> >0x0D TIF> >0x28 TIF> >0x0D TIF> >0x28 TIF> >0x0D TIF> >0x28 TIF> >0x0D TIF> >0x21 TIF> >0x0D TIF> >0x21 TIF> >0x0D TIF> >0x28 TIF> >0x0D TIF> >0x21 TIF> >0x0D TIF> >0x21 TIF> >0x0D TIF> >0x28 TIF> >0x0D TIF> >0x21 TIF> >0x0D TIF> >0x21 TIF> >0x0D TIF> >0x28 TIF> >0x0D TIF> >0x21 TIF> >0x0D TIF> >0x21 TIF> >0x0D TIF> >0x28 TIF>
 >0x0D TIF> >0x21 TIF> >0x0D TIF> >0x21 TIF> >0x0D TIF> >0x28 TIF> >0x0D TIF> >0x21 TIF> >0x0D TIF> >0x21 TIF> >0x0D TIF> >0x28 TIF> >0x0D TIF> >0x21 TIF> >0x0D TIF> >0x21 TIF> >0x10B TIF>Found SW-DP with ID 0x1BA01477 >0x0D TIF> >0x28 TIF> >0x0D TIF> >0x28 TIF> >0x0D TIF> >0x28 TIF> >0x0D TIF> >0x28 TIF> >0x0D TIF> >0x21 TIF> >0x0D TIF> >0x28 TIF>Scanning APs, stopping at first AHB-AP found. >0x0D TIF> >0x28 TIF> >0x0D TIF> >0x21 TIF> >0x0D TIF> >0x21 TIF>AP[0] IDR: 0x14770011 (AHB-AP) >0x0D TIF>
 >0x28 TIF> >0x0D TIF> >0x21 TIF> >0x0D TIF> >0x21 TIF>AHB-AP ROM: 0xE00FF000 (Base addr. of first ROM table) >0x0D TIF> >0x28 TIF> >0x0D TIF> >0x28 TIF> >0x0D TIF> >0x28 TIF> >0x0D TIF> >0x21 TIF> >0x0D TIF> >0x21 TIF> >0x0D TIF> >0x28 TIF> >0x0D TIF> >0x21 TIF> >0x0D TIF> >0x21 TIF>CPUID reg: 0x411FC231. Implementer code: 0x41 (ARM)Found Cortex-M3 r1p1, Little endian. -- CPU_ReadMem(4 bytes @ 0xE000EDF0) -- CPU_WriteMem(4 bytes @ 0xE000EDF0) -- CPU_ReadMem(4 bytes @ 0xE0002000)
FPUnit: 6 code (BP) slots and 2 literal slots -- CPU_ReadMem(4 bytes @ 0xE000EDFC) -- CPU_WriteMem(4 bytes @ 0xE000EDFC) -- CPU_ReadMem(4 bytes @ 0xE0001000) -- CPU_WriteMem(4 bytes @ 0xE0001000) -- CPU_ReadMem(4 bytes @ 0xE000ED88) -- CPU_WriteMem(4 bytes @ 0xE000ED88) -- CPU_ReadMem(4 bytes @ 0xE000ED88) -- CPU_WriteMem(4 bytes @ 0xE000ED88)CoreSight components:ROMTbl[0] @ E00FF000 -- CPU_ReadMem(16 bytes @ 0xE00FF000) -- CPU_ReadMem(16 bytes @ 0xE000EFF0) -- CPU_ReadMem(16 bytes @ 0xE000EFE0)
ROMTbl[0][0]: E000E000, CID: B105E00D, PID: 001BB000 SCS -- CPU_ReadMem(16 bytes @ 0xE0001FF0) -- CPU_ReadMem(16 bytes @ 0xE0001FE0)ROMTbl[0][1]: E0001000, CID: B105E00D, PID: 001BB002 DWT -- CPU_ReadMem(16 bytes @ 0xE0002FF0) -- CPU_ReadMem(16 bytes @ 0xE0002FE0)ROMTbl[0][2]: E0002000, CID: B105E00D, PID: 000BB003 FPB -- CPU_ReadMem(16 bytes @ 0xE0000FF0) -- CPU_ReadMem(16 bytes @ 0xE0000FE0)ROMTbl[0][3]: E0000000, CID: B105E00D, PID: 001BB001 ITM -- CPU_ReadMem(16 bytes @ 0xE00FF010)
 -- CPU_ReadMem(16 bytes @ 0xE0040FF0) -- CPU_ReadMem(16 bytes @ 0xE0040FE0)ROMTbl[0][4]: E0040000, CID: B105900D, PID: 001BB923 TPIU-Lite -- CPU_ReadMem(16 bytes @ 0xE0041FF0) -- CPU_ReadMem(16 bytes @ 0xE0041FE0)ROMTbl[0][5]: E0041000, CID: B105900D, PID: 101BB924 ETM-M3 >0x0D TIF> >0x21 TIF>  returns 0x1BA01477 (0258ms, 0417ms total)
T2D9C 000:453 JLINK_GetDLLVersion()  returns 61600 (0000ms, 0417ms total)
T2D9C 000:453 JLINK_CORE_GetFound()  returns 0x30000FF (0000ms, 0417ms total)
T2D9C 000:453 JLINK_GetDebugInfo(0x100 = JLINKARM_ROM_TABLE_ADDR_INDEX) -- Value=0xE00FF000  returns 0x00 (0000ms, 0417ms total)
T2D9C 000:456 JLINK_GetDebugInfo(0x100 = JLINKARM_ROM_TABLE_ADDR_INDEX) -- Value=0xE00FF000  returns 0x00 (0000ms, 0417ms total)
T2D9C 000:456 JLINK_GetDebugInfo(0x101 = JLINKARM_DEBUG_INFO_ETM_ADDR_INDEX) -- Value=0xE0041000  returns 0x00 (0000ms, 0417ms total)
T2D9C 000:456 JLINK_GetDebugInfo(0x102 = JLINKARM_DEBUG_INFO_MTB_ADDR_INDEX) -- Value=0x00000000  returns 0x00 (0000ms, 0417ms total)
T2D9C 000:456 JLINK_GetDebugInfo(0x103 = JLINKARM_DEBUG_INFO_TPIU_ADDR_INDEX) -- Value=0xE0040000  returns 0x00 (0000ms, 0417ms total)
T2D9C 000:456 JLINK_GetDebugInfo(0x104 = JLINKARM_DEBUG_INFO_ITM_ADDR_INDEX) -- Value=0xE0000000  returns 0x00 (0000ms, 0417ms total)
T2D9C 000:456 JLINK_GetDebugInfo(0x105 = JLINKARM_DEBUG_INFO_DWT_ADDR_INDEX) -- Value=0xE0001000  returns 0x00 (0000ms, 0417ms total)
T2D9C 000:456 JLINK_GetDebugInfo(0x106 = JLINKARM_DEBUG_INFO_FPB_ADDR_INDEX) -- Value=0xE0002000  returns 0x00 (0000ms, 0417ms total)
T2D9C 000:456 JLINK_GetDebugInfo(0x107 = JLINKARM_DEBUG_INFO_NVIC_ADDR_INDEX) -- Value=0xE000E000  returns 0x00 (0000ms, 0417ms total)
T2D9C 000:456 JLINK_GetDebugInfo(0x10C = JLINKARM_DEBUG_INFO_DBG_ADDR_INDEX) -- Value=0xE000EDF0  returns 0x00 (0000ms, 0417ms total)
T2D9C 000:456 JLINK_ReadMemU32(0xE000ED00, 0x0001 Items, ...) -- CPU_ReadMem(4 bytes @ 0xE000ED00) - Data: 31 C2 1F 41  returns 0x01 (0002ms, 0419ms total)
T2D9C 000:458 JLINK_SetResetType(JLINKARM_CM3_RESET_TYPE_NORMAL)  returns JLINKARM_CM3_RESET_TYPE_NORMAL (0000ms, 0419ms total)
T2D9C 000:458 JLINK_Reset() -- CPU is running -- CPU_WriteMem(4 bytes @ 0xE000EDF0) -- CPU is running -- CPU_WriteMem(4 bytes @ 0xE000EDFC) >0x35 TIF>Setting AIRCR.SYSRESETREQ -- CPU is running -- CPU_WriteMem(4 bytes @ 0xE000ED0C) >0x0D TIF> >0x28 TIF> -- CPU_ReadMem(4 bytes @ 0xE000ED0C) -- CPU_ReadMem(4 bytes @ 0xE000EDF0) -- CPU_ReadMem(4 bytes @ 0xE000EDF0) -- CPU_ReadMem(4 bytes @ 0xE000EDF0) -- CPU is running -- CPU_WriteMem(4 bytes @ 0xE000EDF0) -- CPU is running
 -- CPU_WriteMem(4 bytes @ 0xE000EDFC) -- CPU_ReadMem(4 bytes @ 0xE000EDF0) -- CPU_WriteMem(4 bytes @ 0xE0002000) -- CPU_ReadMem(4 bytes @ 0xE000EDFC) -- CPU_ReadMem(4 bytes @ 0xE0001000) (0092ms, 0511ms total)
T2D9C 000:550 JLINK_Halt()  returns 0x00 (0001ms, 0512ms total)
T2D9C 000:551 JLINK_IsHalted()  returns TRUE (0000ms, 0512ms total)
T2D9C 000:551 JLINK_ReadMemU32(0xE000EDF0, 0x0001 Items, ...) -- CPU_ReadMem(4 bytes @ 0xE000EDF0) - Data: 03 00 03 00  returns 0x01 (0001ms, 0513ms total)
T2D9C 000:552 JLINK_WriteU32(0xE000EDF0, 0xA05F0003) -- CPU_WriteMem(4 bytes @ 0xE000EDF0)  returns 0x00 (0002ms, 0515ms total)
T2D9C 000:554 JLINK_WriteU32(0xE000EDFC, 0x01000000) -- CPU_WriteMem(4 bytes @ 0xE000EDFC)  returns 0x00 (0001ms, 0516ms total)
T2D9C 000:578 JLINK_GetHWStatus(...)  returns 0x00 (0001ms, 0517ms total)
T2D9C 000:600 JLINK_GetNumBPUnits(Type = 0xFFFFFF00)  returns 0x06 (0000ms, 0517ms total)
T2D9C 000:600 JLINK_GetNumBPUnits(Type = 0xF0)  returns 0x2000 (0000ms, 0517ms total)
T2D9C 000:600 JLINK_GetNumWPUnits()  returns 0x04 (0000ms, 0517ms total)
T2D9C 000:609 JLINK_GetSpeed()  returns 0x7D0 (0000ms, 0517ms total)
T2D9C 000:617 JLINK_ReadMemU32(0xE000E004, 0x0001 Items, ...) -- CPU_ReadMem(4 bytes @ 0xE000E004) - Data: 01 00 00 00  returns 0x01 (0001ms, 0518ms total)
T2D9C 000:618 JLINK_ReadMemU32(0xE000E004, 0x0001 Items, ...) -- CPU_ReadMem(4 bytes @ 0xE000E004) - Data: 01 00 00 00  returns 0x01 (0001ms, 0519ms total)
T2D9C 000:619 JLINK_WriteMem(0xE0001000, 0x001C Bytes, ...) - Data: 01 00 00 00 00 00 00 00 00 00 00 00 00 00 00 00 ... -- CPU_WriteMem(28 bytes @ 0xE0001000)  returns 0x1C (0002ms, 0521ms total)
T2D9C 000:621 JLINK_ReadMem (0xE0001000, 0x001C Bytes, ...) -- CPU_ReadMem(28 bytes @ 0xE0001000) - Data: 01 00 00 40 00 00 00 00 00 00 00 00 00 00 00 00 ...  returns 0x00 (0002ms, 0523ms total)
T2D9C 000:623 JLINK_Halt()  returns 0x00 (0000ms, 0523ms total)
T2D9C 000:623 JLINK_IsHalted()  returns TRUE (0000ms, 0523ms total)
T2D9C 000:626 JLINK_WriteMem(0x20000000, 0x0164 Bytes, ...) - Data: 00 BE 0A E0 0D 78 2D 06 68 40 08 24 40 00 00 D3 ... -- CPU_WriteMem(356 bytes @ 0x20000000)  returns 0x164 (0005ms, 0528ms total)
T2D9C 000:631 JLINK_WriteReg(R0, 0x08000000)  returns 0x00 (0000ms, 0528ms total)
T2D9C 000:631 JLINK_WriteReg(R1, 0x044AA200)  returns 0x00 (0000ms, 0528ms total)
T2D9C 000:631 JLINK_WriteReg(R2, 0x00000001)  returns 0x00 (0000ms, 0528ms total)
T2D9C 000:631 JLINK_WriteReg(R3, 0x00000000)  returns 0x00 (0000ms, 0528ms total)
T2D9C 000:631 JLINK_WriteReg(R4, 0x00000000)  returns 0x00 (0000ms, 0528ms total)
T2D9C 000:631 JLINK_WriteReg(R5, 0x00000000)  returns 0x00 (0000ms, 0528ms total)
T2D9C 000:631 JLINK_WriteReg(R6, 0x00000000)  returns 0x00 (0000ms, 0528ms total)
T2D9C 000:631 JLINK_WriteReg(R7, 0x00000000)  returns 0x00 (0000ms, 0528ms total)
T2D9C 000:631 JLINK_WriteReg(R8, 0x00000000)  returns 0x00 (0000ms, 0528ms total)
T2D9C 000:631 JLINK_WriteReg(R9, 0x20000160)  returns 0x00 (0000ms, 0528ms total)
T2D9C 000:631 JLINK_WriteReg(R10, 0x00000000)  returns 0x00 (0000ms, 0528ms total)
T2D9C 000:631 JLINK_WriteReg(R11, 0x00000000)  returns 0x00 (0000ms, 0528ms total)
T2D9C 000:631 JLINK_WriteReg(R12, 0x00000000)  returns 0x00 (0000ms, 0528ms total)
T2D9C 000:631 JLINK_WriteReg(R13 (SP), 0x20001000)  returns 0x00 (0000ms, 0528ms total)
T2D9C 000:631 JLINK_WriteReg(R14, 0x20000001)  returns 0x00 (0000ms, 0528ms total)
T2D9C 000:631 JLINK_WriteReg(R15 (PC), 0x20000038)  returns 0x00 (0000ms, 0528ms total)
T2D9C 000:631 JLINK_WriteReg(XPSR, 0x01000000)  returns 0x00 (0000ms, 0528ms total)
T2D9C 000:631 JLINK_WriteReg(MSP, 0x20001000)  returns 0x00 (0000ms, 0528ms total)
T2D9C 000:631 JLINK_WriteReg(PSP, 0x20001000)  returns 0x00 (0000ms, 0528ms total)
T2D9C 000:631 JLINK_WriteReg(CFBP, 0x00000000)  returns 0x00 (0001ms, 0529ms total)
T2D9C 000:632 JLINK_SetBPEx(Addr = 0x20000000, Type = 0xFFFFFFF2) -- CPU_ReadMem(2 bytes @ 0x20000000)  returns 0x00000001 (0001ms, 0530ms total)
T2D9C 000:633 JLINK_Go() -- CPU_WriteMem(2 bytes @ 0x20000000) -- CPU_ReadMem(4 bytes @ 0xE0001000) -- CPU_WriteMem(4 bytes @ 0xE0002008) -- CPU_WriteMem(4 bytes @ 0xE000200C) -- CPU_WriteMem(4 bytes @ 0xE0002010) -- CPU_WriteMem(4 bytes @ 0xE0002014) -- CPU_WriteMem(4 bytes @ 0xE0002018) -- CPU_WriteMem(4 bytes @ 0xE000201C) -- CPU_WriteMem(4 bytes @ 0xE0001004) (0013ms, 0543ms total)
T2D9C 000:646 JLINK_IsHalted() -- CPU_ReadMem(2 bytes @ 0x20000000)  returns TRUE (0008ms, 0551ms total)
T2D9C 000:654 JLINK_ReadReg(R15 (PC))  returns 0x20000000 (0000ms, 0543ms total)
T2D9C 000:654 JLINK_ClrBPEx(BPHandle = 0x00000001)  returns 0x00 (0000ms, 0543ms total)
T2D9C 000:654 JLINK_ReadReg(R0)  returns 0x00000000 (0000ms, 0543ms total)
T2D9C 000:655 JLINK_WriteReg(R0, 0x08000000)  returns 0x00 (0000ms, 0543ms total)
T2D9C 000:655 JLINK_WriteReg(R1, 0x044AA200)  returns 0x00 (0000ms, 0543ms total)
T2D9C 000:655 JLINK_WriteReg(R2, 0x00000001)  returns 0x00 (0000ms, 0543ms total)
T2D9C 000:655 JLINK_WriteReg(R3, 0x00000000)  returns 0x00 (0000ms, 0543ms total)
T2D9C 000:655 JLINK_WriteReg(R4, 0x00000000)  returns 0x00 (0000ms, 0543ms total)
T2D9C 000:655 JLINK_WriteReg(R5, 0x00000000)  returns 0x00 (0000ms, 0543ms total)
T2D9C 000:655 JLINK_WriteReg(R6, 0x00000000)  returns 0x00 (0000ms, 0543ms total)
T2D9C 000:655 JLINK_WriteReg(R7, 0x00000000)  returns 0x00 (0000ms, 0543ms total)
T2D9C 000:655 JLINK_WriteReg(R8, 0x00000000)  returns 0x00 (0000ms, 0543ms total)
T2D9C 000:655 JLINK_WriteReg(R9, 0x20000160)  returns 0x00 (0000ms, 0543ms total)
T2D9C 000:655 JLINK_WriteReg(R10, 0x00000000)  returns 0x00 (0000ms, 0543ms total)
T2D9C 000:655 JLINK_WriteReg(R11, 0x00000000)  returns 0x00 (0000ms, 0543ms total)
T2D9C 000:655 JLINK_WriteReg(R12, 0x00000000)  returns 0x00 (0000ms, 0543ms total)
T2D9C 000:655 JLINK_WriteReg(R13 (SP), 0x20001000)  returns 0x00 (0000ms, 0543ms total)
T2D9C 000:655 JLINK_WriteReg(R14, 0x20000001)  returns 0x00 (0000ms, 0543ms total)
T2D9C 000:655 JLINK_WriteReg(R15 (PC), 0x2000007C)  returns 0x00 (0000ms, 0543ms total)
T2D9C 000:655 JLINK_WriteReg(XPSR, 0x01000000)  returns 0x00 (0000ms, 0543ms total)
T2D9C 000:655 JLINK_WriteReg(MSP, 0x20001000)  returns 0x00 (0000ms, 0543ms total)
T2D9C 000:655 JLINK_WriteReg(PSP, 0x20001000)  returns 0x00 (0000ms, 0543ms total)
T2D9C 000:655 JLINK_WriteReg(CFBP, 0x00000000)  returns 0x00 (0000ms, 0543ms total)
T2D9C 000:655 JLINK_SetBPEx(Addr = 0x20000000, Type = 0xFFFFFFF2)  returns 0x00000002 (0000ms, 0543ms total)
T2D9C 000:655 JLINK_Go() -- CPU_ReadMem(4 bytes @ 0xE0001000) (0005ms, 0548ms total)
T2D9C 000:660 JLINK_IsHalted()  returns FALSE (0002ms, 0550ms total)
T2D9C 000:728 JLINK_IsHalted() -- CPU_ReadMem(2 bytes @ 0x20000000)  returns TRUE (0008ms, 0556ms total)
T2D9C 000:736 JLINK_ReadReg(R15 (PC))  returns 0x20000000 (0000ms, 0548ms total)
T2D9C 000:736 JLINK_ClrBPEx(BPHandle = 0x00000002)  returns 0x00 (0000ms, 0548ms total)
T2D9C 000:736 JLINK_ReadReg(R0)  returns 0x00000000 (0000ms, 0548ms total)
T2D9C 000:790 JLINK_WriteReg(R0, 0x00000001)  returns 0x00 (0000ms, 0548ms total)
T2D9C 000:790 JLINK_WriteReg(R1, 0x044AA200)  returns 0x00 (0000ms, 0548ms total)
T2D9C 000:790 JLINK_WriteReg(R2, 0x00000001)  returns 0x00 (0000ms, 0548ms total)
T2D9C 000:790 JLINK_WriteReg(R3, 0x00000000)  returns 0x00 (0000ms, 0548ms total)
T2D9C 000:790 JLINK_WriteReg(R4, 0x00000000)  returns 0x00 (0000ms, 0548ms total)
T2D9C 000:790 JLINK_WriteReg(R5, 0x00000000)  returns 0x00 (0000ms, 0548ms total)
T2D9C 000:790 JLINK_WriteReg(R6, 0x00000000)  returns 0x00 (0000ms, 0548ms total)
T2D9C 000:790 JLINK_WriteReg(R7, 0x00000000)  returns 0x00 (0000ms, 0548ms total)
T2D9C 000:790 JLINK_WriteReg(R8, 0x00000000)  returns 0x00 (0000ms, 0548ms total)
T2D9C 000:790 JLINK_WriteReg(R9, 0x20000160)  returns 0x00 (0000ms, 0548ms total)
T2D9C 000:790 JLINK_WriteReg(R10, 0x00000000)  returns 0x00 (0000ms, 0548ms total)
T2D9C 000:790 JLINK_WriteReg(R11, 0x00000000)  returns 0x00 (0000ms, 0548ms total)
T2D9C 000:790 JLINK_WriteReg(R12, 0x00000000)  returns 0x00 (0000ms, 0548ms total)
T2D9C 000:790 JLINK_WriteReg(R13 (SP), 0x20001000)  returns 0x00 (0000ms, 0548ms total)
T2D9C 000:790 JLINK_WriteReg(R14, 0x20000001)  returns 0x00 (0000ms, 0548ms total)
T2D9C 000:790 JLINK_WriteReg(R15 (PC), 0x2000006A)  returns 0x00 (0000ms, 0548ms total)
T2D9C 000:790 JLINK_WriteReg(XPSR, 0x01000000)  returns 0x00 (0000ms, 0548ms total)
T2D9C 000:790 JLINK_WriteReg(MSP, 0x20001000)  returns 0x00 (0000ms, 0548ms total)
T2D9C 000:790 JLINK_WriteReg(PSP, 0x20001000)  returns 0x00 (0000ms, 0548ms total)
T2D9C 000:790 JLINK_WriteReg(CFBP, 0x00000000)  returns 0x00 (0000ms, 0548ms total)
T2D9C 000:790 JLINK_SetBPEx(Addr = 0x20000000, Type = 0xFFFFFFF2)  returns 0x00000003 (0001ms, 0549ms total)
T2D9C 000:791 JLINK_Go() -- CPU_ReadMem(4 bytes @ 0xE0001000) (0005ms, 0554ms total)
T2D9C 000:796 JLINK_IsHalted() -- CPU_ReadMem(2 bytes @ 0x20000000)  returns TRUE (0008ms, 0562ms total)
T2D9C 000:804 JLINK_ReadReg(R15 (PC))  returns 0x20000000 (0000ms, 0554ms total)
T2D9C 000:804 JLINK_ClrBPEx(BPHandle = 0x00000003)  returns 0x00 (0000ms, 0554ms total)
T2D9C 000:804 JLINK_ReadReg(R0)  returns 0x00000000 (0000ms, 0554ms total)
T2D9C 000:816 JLINK_WriteMem(0x20000000, 0x0164 Bytes, ...) - Data: 00 BE 0A E0 0D 78 2D 06 68 40 08 24 40 00 00 D3 ... -- CPU_WriteMem(356 bytes @ 0x20000000)  returns 0x164 (0005ms, 0559ms total)
T2D9C 000:821 JLINK_WriteReg(R0, 0x08000000)  returns 0x00 (0000ms, 0559ms total)
T2D9C 000:821 JLINK_WriteReg(R1, 0x044AA200)  returns 0x00 (0000ms, 0559ms total)
T2D9C 000:821 JLINK_WriteReg(R2, 0x00000002)  returns 0x00 (0001ms, 0560ms total)
T2D9C 000:822 JLINK_WriteReg(R3, 0x00000000)  returns 0x00 (0000ms, 0560ms total)
T2D9C 000:822 JLINK_WriteReg(R4, 0x00000000)  returns 0x00 (0000ms, 0560ms total)
T2D9C 000:822 JLINK_WriteReg(R5, 0x00000000)  returns 0x00 (0000ms, 0560ms total)
T2D9C 000:822 JLINK_WriteReg(R6, 0x00000000)  returns 0x00 (0000ms, 0560ms total)
T2D9C 000:822 JLINK_WriteReg(R7, 0x00000000)  returns 0x00 (0000ms, 0560ms total)
T2D9C 000:822 JLINK_WriteReg(R8, 0x00000000)  returns 0x00 (0000ms, 0560ms total)
T2D9C 000:822 JLINK_WriteReg(R9, 0x20000160)  returns 0x00 (0000ms, 0560ms total)
T2D9C 000:822 JLINK_WriteReg(R10, 0x00000000)  returns 0x00 (0000ms, 0560ms total)
T2D9C 000:822 JLINK_WriteReg(R11, 0x00000000)  returns 0x00 (0000ms, 0560ms total)
T2D9C 000:822 JLINK_WriteReg(R12, 0x00000000)  returns 0x00 (0000ms, 0560ms total)
T2D9C 000:822 JLINK_WriteReg(R13 (SP), 0x20001000)  returns 0x00 (0000ms, 0560ms total)
T2D9C 000:822 JLINK_WriteReg(R14, 0x20000001)  returns 0x00 (0000ms, 0560ms total)
T2D9C 000:822 JLINK_WriteReg(R15 (PC), 0x20000038)  returns 0x00 (0000ms, 0560ms total)
T2D9C 000:822 JLINK_WriteReg(XPSR, 0x01000000)  returns 0x00 (0000ms, 0560ms total)
T2D9C 000:822 JLINK_WriteReg(MSP, 0x20001000)  returns 0x00 (0000ms, 0560ms total)
T2D9C 000:822 JLINK_WriteReg(PSP, 0x20001000)  returns 0x00 (0000ms, 0560ms total)
T2D9C 000:822 JLINK_WriteReg(CFBP, 0x00000000)  returns 0x00 (0000ms, 0560ms total)
T2D9C 000:822 JLINK_SetBPEx(Addr = 0x20000000, Type = 0xFFFFFFF2) -- CPU_ReadMem(2 bytes @ 0x20000000)  returns 0x00000004 (0002ms, 0562ms total)
T2D9C 000:824 JLINK_Go() -- CPU_WriteMem(2 bytes @ 0x20000000) -- CPU_ReadMem(4 bytes @ 0xE0001000) (0006ms, 0568ms total)
T2D9C 000:830 JLINK_IsHalted() -- CPU_ReadMem(2 bytes @ 0x20000000)  returns TRUE (0008ms, 0576ms total)
T2D9C 000:838 JLINK_ReadReg(R15 (PC))  returns 0x20000000 (0000ms, 0568ms total)
T2D9C 000:838 JLINK_ClrBPEx(BPHandle = 0x00000004)  returns 0x00 (0000ms, 0568ms total)
T2D9C 000:838 JLINK_ReadReg(R0)  returns 0x00000000 (0000ms, 0568ms total)
T2D9C 000:838 JLINK_WriteMem(0x20000164, 0x0400 Bytes, ...) - Data: F0 E4 00 20 E9 01 00 08 29 55 00 08 B9 4B 00 08 ... -- CPU_WriteMem(1024 bytes @ 0x20000164)  returns 0x400 (0013ms, 0581ms total)
T2D9C 000:851 JLINK_WriteReg(R0, 0x08000000)  returns 0x00 (0000ms, 0581ms total)
T2D9C 000:851 JLINK_WriteReg(R1, 0x00000400)  returns 0x00 (0000ms, 0581ms total)
T2D9C 000:851 JLINK_WriteReg(R2, 0x20000164)  returns 0x00 (0000ms, 0581ms total)
T2D9C 000:851 JLINK_WriteReg(R3, 0x00000000)  returns 0x00 (0000ms, 0581ms total)
T2D9C 000:851 JLINK_WriteReg(R4, 0x00000000)  returns 0x00 (0000ms, 0581ms total)
T2D9C 000:851 JLINK_WriteReg(R5, 0x00000000)  returns 0x00 (0000ms, 0581ms total)
T2D9C 000:851 JLINK_WriteReg(R6, 0x00000000)  returns 0x00 (0000ms, 0581ms total)
T2D9C 000:851 JLINK_WriteReg(R7, 0x00000000)  returns 0x00 (0000ms, 0581ms total)
T2D9C 000:851 JLINK_WriteReg(R8, 0x00000000)  returns 0x00 (0000ms, 0581ms total)
T2D9C 000:851 JLINK_WriteReg(R9, 0x20000160)  returns 0x00 (0000ms, 0581ms total)
T2D9C 000:851 JLINK_WriteReg(R10, 0x00000000)  returns 0x00 (0000ms, 0581ms total)
T2D9C 000:851 JLINK_WriteReg(R11, 0x00000000)  returns 0x00 (0000ms, 0581ms total)
T2D9C 000:851 JLINK_WriteReg(R12, 0x00000000)  returns 0x00 (0000ms, 0581ms total)
T2D9C 000:851 JLINK_WriteReg(R13 (SP), 0x20001000)  returns 0x00 (0000ms, 0581ms total)
T2D9C 000:851 JLINK_WriteReg(R14, 0x20000001)  returns 0x00 (0000ms, 0581ms total)
T2D9C 000:851 JLINK_WriteReg(R15 (PC), 0x200000F4)  returns 0x00 (0000ms, 0581ms total)
T2D9C 000:851 JLINK_WriteReg(XPSR, 0x01000000)  returns 0x00 (0000ms, 0581ms total)
T2D9C 000:851 JLINK_WriteReg(MSP, 0x20001000)  returns 0x00 (0001ms, 0582ms total)
T2D9C 000:852 JLINK_WriteReg(PSP, 0x20001000)  returns 0x00 (0000ms, 0582ms total)
T2D9C 000:852 JLINK_WriteReg(CFBP, 0x00000000)  returns 0x00 (0000ms, 0582ms total)
T2D9C 000:852 JLINK_SetBPEx(Addr = 0x20000000, Type = 0xFFFFFFF2)  returns 0x00000005 (0000ms, 0582ms total)
T2D9C 000:852 JLINK_Go() -- CPU_ReadMem(4 bytes @ 0xE0001000) (0005ms, 0587ms total)
T2D9C 000:857 JLINK_IsHalted()  returns FALSE (0001ms, 0588ms total)
T2D9C 000:870 JLINK_IsHalted()  returns FALSE (0001ms, 0588ms total)
T2D9C 000:873 JLINK_IsHalted()  returns FALSE (0001ms, 0588ms total)
T2D9C 000:876 JLINK_IsHalted()  returns FALSE (0001ms, 0588ms total)
T2D9C 000:879 JLINK_IsHalted()  returns FALSE (0002ms, 0589ms total)
T2D9C 000:882 JLINK_IsHalted()  returns FALSE (0001ms, 0588ms total)
T2D9C 000:885 JLINK_IsHalted()  returns FALSE (0001ms, 0588ms total)
T2D9C 000:892 JLINK_IsHalted() -- CPU_ReadMem(2 bytes @ 0x20000000)  returns TRUE (0007ms, 0594ms total)
T2D9C 000:899 JLINK_ReadReg(R15 (PC))  returns 0x20000000 (0000ms, 0587ms total)
T2D9C 000:899 JLINK_ClrBPEx(BPHandle = 0x00000005)  returns 0x00 (0001ms, 0588ms total)
T2D9C 000:900 JLINK_ReadReg(R0)  returns 0x00000000 (0000ms, 0588ms total)
T2D9C 000:901 JLINK_WriteMem(0x20000164, 0x0400 Bytes, ...) - Data: 11 52 84 EA E7 73 1A 43 40 D0 00 9A 62 B3 01 9A ... -- CPU_WriteMem(1024 bytes @ 0x20000164)  returns 0x400 (0011ms, 0599ms total)
T2D9C 000:912 JLINK_WriteReg(R0, 0x08000400)  returns 0x00 (0000ms, 0599ms total)
T2D9C 000:912 JLINK_WriteReg(R1, 0x00000400)  returns 0x00 (0001ms, 0600ms total)
T2D9C 000:913 JLINK_WriteReg(R2, 0x20000164)  returns 0x00 (0000ms, 0600ms total)
T2D9C 000:913 JLINK_WriteReg(R3, 0x00000000)  returns 0x00 (0000ms, 0600ms total)
T2D9C 000:913 JLINK_WriteReg(R4, 0x00000000)  returns 0x00 (0000ms, 0600ms total)
T2D9C 000:913 JLINK_WriteReg(R5, 0x00000000)  returns 0x00 (0000ms, 0600ms total)
T2D9C 000:913 JLINK_WriteReg(R6, 0x00000000)  returns 0x00 (0000ms, 0600ms total)
T2D9C 000:913 JLINK_WriteReg(R7, 0x00000000)  returns 0x00 (0000ms, 0600ms total)
T2D9C 000:913 JLINK_WriteReg(R8, 0x00000000)  returns 0x00 (0000ms, 0600ms total)
T2D9C 000:913 JLINK_WriteReg(R9, 0x20000160)  returns 0x00 (0000ms, 0600ms total)
T2D9C 000:913 JLINK_WriteReg(R10, 0x00000000)  returns 0x00 (0000ms, 0600ms total)
T2D9C 000:913 JLINK_WriteReg(R11, 0x00000000)  returns 0x00 (0000ms, 0600ms total)
T2D9C 000:913 JLINK_WriteReg(R12, 0x00000000)  returns 0x00 (0000ms, 0600ms total)
T2D9C 000:913 JLINK_WriteReg(R13 (SP), 0x20001000)  returns 0x00 (0000ms, 0600ms total)
T2D9C 000:913 JLINK_WriteReg(R14, 0x20000001)  returns 0x00 (0000ms, 0600ms total)
T2D9C 000:913 JLINK_WriteReg(R15 (PC), 0x200000F4)  returns 0x00 (0000ms, 0600ms total)
T2D9C 000:913 JLINK_WriteReg(XPSR, 0x01000000)  returns 0x00 (0000ms, 0600ms total)
T2D9C 000:913 JLINK_WriteReg(MSP, 0x20001000)  returns 0x00 (0000ms, 0600ms total)
T2D9C 000:913 JLINK_WriteReg(PSP, 0x20001000)  returns 0x00 (0000ms, 0600ms total)
T2D9C 000:913 JLINK_WriteReg(CFBP, 0x00000000)  returns 0x00 (0000ms, 0600ms total)
T2D9C 000:913 JLINK_SetBPEx(Addr = 0x20000000, Type = 0xFFFFFFF2)  returns 0x00000006 (0000ms, 0600ms total)
T2D9C 000:913 JLINK_Go() -- CPU_ReadMem(4 bytes @ 0xE0001000) (0006ms, 0606ms total)
T2D9C 000:920 JLINK_IsHalted()  returns FALSE (0001ms, 0608ms total)
T2D9C 000:923 JLINK_IsHalted()  returns FALSE (0001ms, 0608ms total)
T2D9C 000:926 JLINK_IsHalted()  returns FALSE (0001ms, 0608ms total)
T2D9C 000:929 JLINK_IsHalted()  returns FALSE (0001ms, 0608ms total)
T2D9C 000:932 JLINK_IsHalted()  returns FALSE (0001ms, 0608ms total)
T2D9C 000:935 JLINK_IsHalted()  returns FALSE (0001ms, 0608ms total)
T2D9C 000:938 JLINK_IsHalted()  returns FALSE (0001ms, 0608ms total)
T2D9C 000:941 JLINK_IsHalted()  returns FALSE (0001ms, 0608ms total)
T2D9C 000:944 JLINK_IsHalted()  returns FALSE (0001ms, 0608ms total)
T2D9C 000:948 JLINK_IsHalted()  returns FALSE (0001ms, 0608ms total)
T2D9C 000:951 JLINK_IsHalted() -- CPU_ReadMem(2 bytes @ 0x20000000)  returns TRUE (0007ms, 0614ms total)
T2D9C 000:958 JLINK_ReadReg(R15 (PC))  returns 0x20000000 (0000ms, 0607ms total)
T2D9C 000:958 JLINK_ClrBPEx(BPHandle = 0x00000006)  returns 0x00 (0000ms, 0607ms total)
T2D9C 000:958 JLINK_ReadReg(R0)  returns 0x00000000 (0000ms, 0607ms total)
T2D9C 000:960 JLINK_WriteMem(0x20000164, 0x0400 Bytes, ...) - Data: 02 F5 9D 42 05 D3 03 FA 02 F5 49 1B 04 FA 02 F5 ... -- CPU_WriteMem(1024 bytes @ 0x20000164)  returns 0x400 (0011ms, 0618ms total)
T2D9C 000:971 JLINK_WriteReg(R0, 0x08000800)  returns 0x00 (0000ms, 0618ms total)
T2D9C 000:971 JLINK_WriteReg(R1, 0x00000400)  returns 0x00 (0000ms, 0618ms total)
T2D9C 000:971 JLINK_WriteReg(R2, 0x20000164)  returns 0x00 (0000ms, 0618ms total)
T2D9C 000:971 JLINK_WriteReg(R3, 0x00000000)  returns 0x00 (0000ms, 0618ms total)
T2D9C 000:971 JLINK_WriteReg(R4, 0x00000000)  returns 0x00 (0000ms, 0618ms total)
T2D9C 000:971 JLINK_WriteReg(R5, 0x00000000)  returns 0x00 (0000ms, 0618ms total)
T2D9C 000:971 JLINK_WriteReg(R6, 0x00000000)  returns 0x00 (0000ms, 0618ms total)
T2D9C 000:971 JLINK_WriteReg(R7, 0x00000000)  returns 0x00 (0000ms, 0618ms total)
T2D9C 000:971 JLINK_WriteReg(R8, 0x00000000)  returns 0x00 (0000ms, 0618ms total)
T2D9C 000:971 JLINK_WriteReg(R9, 0x20000160)  returns 0x00 (0000ms, 0618ms total)
T2D9C 000:971 JLINK_WriteReg(R10, 0x00000000)  returns 0x00 (0000ms, 0618ms total)
T2D9C 000:971 JLINK_WriteReg(R11, 0x00000000)  returns 0x00 (0000ms, 0618ms total)
T2D9C 000:971 JLINK_WriteReg(R12, 0x00000000)  returns 0x00 (0000ms, 0618ms total)
T2D9C 000:971 JLINK_WriteReg(R13 (SP), 0x20001000)  returns 0x00 (0000ms, 0618ms total)
T2D9C 000:971 JLINK_WriteReg(R14, 0x20000001)  returns 0x00 (0000ms, 0618ms total)
T2D9C 000:971 JLINK_WriteReg(R15 (PC), 0x200000F4)  returns 0x00 (0000ms, 0618ms total)
T2D9C 000:971 JLINK_WriteReg(XPSR, 0x01000000)  returns 0x00 (0000ms, 0618ms total)
T2D9C 000:971 JLINK_WriteReg(MSP, 0x20001000)  returns 0x00 (0001ms, 0619ms total)
T2D9C 000:972 JLINK_WriteReg(PSP, 0x20001000)  returns 0x00 (0000ms, 0619ms total)
T2D9C 000:972 JLINK_WriteReg(CFBP, 0x00000000)  returns 0x00 (0000ms, 0619ms total)
T2D9C 000:972 JLINK_SetBPEx(Addr = 0x20000000, Type = 0xFFFFFFF2)  returns 0x00000007 (0000ms, 0619ms total)
T2D9C 000:972 JLINK_Go() -- CPU_ReadMem(4 bytes @ 0xE0001000) (0005ms, 0624ms total)
T2D9C 000:977 JLINK_IsHalted()  returns FALSE (0002ms, 0626ms total)
T2D9C 000:984 JLINK_IsHalted()  returns FALSE (0001ms, 0625ms total)
T2D9C 000:987 JLINK_IsHalted()  returns FALSE (0001ms, 0625ms total)
T2D9C 000:990 JLINK_IsHalted()  returns FALSE (0001ms, 0625ms total)
T2D9C 000:993 JLINK_IsHalted()  returns FALSE (0001ms, 0625ms total)
T2D9C 000:996 JLINK_IsHalted()  returns FALSE (0001ms, 0625ms total)
T2D9C 000:999 JLINK_IsHalted()  returns FALSE (0001ms, 0626ms total)
T2D9C 001:002 JLINK_IsHalted()  returns FALSE (0001ms, 0626ms total)
T2D9C 001:005 JLINK_IsHalted()  returns FALSE (0001ms, 0626ms total)
T2D9C 001:008 JLINK_IsHalted() -- CPU_ReadMem(2 bytes @ 0x20000000)  returns TRUE (0008ms, 0633ms total)
T2D9C 001:016 JLINK_ReadReg(R15 (PC))  returns 0x20000000 (0000ms, 0625ms total)
T2D9C 001:016 JLINK_ClrBPEx(BPHandle = 0x00000007)  returns 0x00 (0000ms, 0625ms total)
T2D9C 001:016 JLINK_ReadReg(R0)  returns 0x00000000 (0000ms, 0625ms total)
T2D9C 001:018 JLINK_WriteMem(0x20000164, 0x0400 Bytes, ...) - Data: 02 78 0D A1 0F 48 07 F0 15 F9 06 E0 FF 20 09 49 ... -- CPU_WriteMem(1024 bytes @ 0x20000164)  returns 0x400 (0012ms, 0637ms total)
T2D9C 001:030 JLINK_WriteReg(R0, 0x08000C00)  returns 0x00 (0000ms, 0637ms total)
T2D9C 001:030 JLINK_WriteReg(R1, 0x00000400)  returns 0x00 (0000ms, 0637ms total)
T2D9C 001:030 JLINK_WriteReg(R2, 0x20000164)  returns 0x00 (0000ms, 0637ms total)
T2D9C 001:030 JLINK_WriteReg(R3, 0x00000000)  returns 0x00 (0000ms, 0637ms total)
T2D9C 001:030 JLINK_WriteReg(R4, 0x00000000)  returns 0x00 (0000ms, 0637ms total)
T2D9C 001:030 JLINK_WriteReg(R5, 0x00000000)  returns 0x00 (0000ms, 0637ms total)
T2D9C 001:030 JLINK_WriteReg(R6, 0x00000000)  returns 0x00 (0000ms, 0637ms total)
T2D9C 001:030 JLINK_WriteReg(R7, 0x00000000)  returns 0x00 (0000ms, 0637ms total)
T2D9C 001:030 JLINK_WriteReg(R8, 0x00000000)  returns 0x00 (0000ms, 0637ms total)
T2D9C 001:030 JLINK_WriteReg(R9, 0x20000160)  returns 0x00 (0000ms, 0637ms total)
T2D9C 001:030 JLINK_WriteReg(R10, 0x00000000)  returns 0x00 (0000ms, 0637ms total)
T2D9C 001:030 JLINK_WriteReg(R11, 0x00000000)  returns 0x00 (0000ms, 0637ms total)
T2D9C 001:030 JLINK_WriteReg(R12, 0x00000000)  returns 0x00 (0000ms, 0637ms total)
T2D9C 001:030 JLINK_WriteReg(R13 (SP), 0x20001000)  returns 0x00 (0000ms, 0637ms total)
T2D9C 001:030 JLINK_WriteReg(R14, 0x20000001)  returns 0x00 (0000ms, 0637ms total)
T2D9C 001:030 JLINK_WriteReg(R15 (PC), 0x200000F4)  returns 0x00 (0000ms, 0637ms total)
T2D9C 001:030 JLINK_WriteReg(XPSR, 0x01000000)  returns 0x00 (0000ms, 0637ms total)
T2D9C 001:030 JLINK_WriteReg(MSP, 0x20001000)  returns 0x00 (0000ms, 0637ms total)
T2D9C 001:030 JLINK_WriteReg(PSP, 0x20001000)  returns 0x00 (0001ms, 0638ms total)
T2D9C 001:031 JLINK_WriteReg(CFBP, 0x00000000)  returns 0x00 (0000ms, 0638ms total)
T2D9C 001:031 JLINK_SetBPEx(Addr = 0x20000000, Type = 0xFFFFFFF2)  returns 0x00000008 (0000ms, 0638ms total)
T2D9C 001:031 JLINK_Go() -- CPU_ReadMem(4 bytes @ 0xE0001000) (0006ms, 0644ms total)
T2D9C 001:037 JLINK_IsHalted()  returns FALSE (0001ms, 0645ms total)
T2D9C 001:040 JLINK_IsHalted()  returns FALSE (0001ms, 0645ms total)
T2D9C 001:043 JLINK_IsHalted()  returns FALSE (0001ms, 0645ms total)
T2D9C 001:046 JLINK_IsHalted()  returns FALSE (0001ms, 0645ms total)
T2D9C 001:057 JLINK_IsHalted()  returns FALSE (0001ms, 0645ms total)
T2D9C 001:060 JLINK_IsHalted()  returns FALSE (0001ms, 0645ms total)
T2D9C 001:063 JLINK_IsHalted()  returns FALSE (0001ms, 0645ms total)
T2D9C 001:066 JLINK_IsHalted() -- CPU_ReadMem(2 bytes @ 0x20000000)  returns TRUE (0008ms, 0652ms total)
T2D9C 001:074 JLINK_ReadReg(R15 (PC))  returns 0x20000000 (0000ms, 0644ms total)
T2D9C 001:074 JLINK_ClrBPEx(BPHandle = 0x00000008)  returns 0x00 (0000ms, 0644ms total)
T2D9C 001:074 JLINK_ReadReg(R0)  returns 0x00000000 (0000ms, 0644ms total)
T2D9C 001:076 JLINK_WriteMem(0x20000164, 0x0400 Bytes, ...) - Data: 80 00 04 F0 87 FE FF 20 04 F0 84 FE 05 46 00 F0 ... -- CPU_WriteMem(1024 bytes @ 0x20000164)  returns 0x400 (0011ms, 0655ms total)
T2D9C 001:089 JLINK_WriteReg(R0, 0x08001000)  returns 0x00 (0000ms, 0655ms total)
T2D9C 001:089 JLINK_WriteReg(R1, 0x00000400)  returns 0x00 (0000ms, 0655ms total)
T2D9C 001:089 JLINK_WriteReg(R2, 0x20000164)  returns 0x00 (0000ms, 0655ms total)
T2D9C 001:089 JLINK_WriteReg(R3, 0x00000000)  returns 0x00 (0000ms, 0655ms total)
T2D9C 001:089 JLINK_WriteReg(R4, 0x00000000)  returns 0x00 (0000ms, 0655ms total)
T2D9C 001:089 JLINK_WriteReg(R5, 0x00000000)  returns 0x00 (0000ms, 0655ms total)
T2D9C 001:089 JLINK_WriteReg(R6, 0x00000000)  returns 0x00 (0000ms, 0655ms total)
T2D9C 001:089 JLINK_WriteReg(R7, 0x00000000)  returns 0x00 (0000ms, 0655ms total)
T2D9C 001:089 JLINK_WriteReg(R8, 0x00000000)  returns 0x00 (0000ms, 0655ms total)
T2D9C 001:089 JLINK_WriteReg(R9, 0x20000160)  returns 0x00 (0000ms, 0655ms total)
T2D9C 001:089 JLINK_WriteReg(R10, 0x00000000)  returns 0x00 (0000ms, 0655ms total)
T2D9C 001:089 JLINK_WriteReg(R11, 0x00000000)  returns 0x00 (0000ms, 0655ms total)
T2D9C 001:089 JLINK_WriteReg(R12, 0x00000000)  returns 0x00 (0000ms, 0655ms total)
T2D9C 001:089 JLINK_WriteReg(R13 (SP), 0x20001000)  returns 0x00 (0000ms, 0655ms total)
T2D9C 001:089 JLINK_WriteReg(R14, 0x20000001)  returns 0x00 (0001ms, 0656ms total)
T2D9C 001:090 JLINK_WriteReg(R15 (PC), 0x200000F4)  returns 0x00 (0000ms, 0656ms total)
T2D9C 001:090 JLINK_WriteReg(XPSR, 0x01000000)  returns 0x00 (0000ms, 0656ms total)
T2D9C 001:090 JLINK_WriteReg(MSP, 0x20001000)  returns 0x00 (0000ms, 0656ms total)
T2D9C 001:090 JLINK_WriteReg(PSP, 0x20001000)  returns 0x00 (0000ms, 0656ms total)
T2D9C 001:090 JLINK_WriteReg(CFBP, 0x00000000)  returns 0x00 (0000ms, 0656ms total)
T2D9C 001:090 JLINK_SetBPEx(Addr = 0x20000000, Type = 0xFFFFFFF2)  returns 0x00000009 (0000ms, 0656ms total)
T2D9C 001:090 JLINK_Go() -- CPU_ReadMem(4 bytes @ 0xE0001000) (0005ms, 0661ms total)
T2D9C 001:096 JLINK_IsHalted()  returns FALSE (0001ms, 0663ms total)
T2D9C 001:103 JLINK_IsHalted()  returns FALSE (0001ms, 0663ms total)
T2D9C 001:106 JLINK_IsHalted()  returns FALSE (0001ms, 0663ms total)
T2D9C 001:109 JLINK_IsHalted()  returns FALSE (0001ms, 0663ms total)
T2D9C 001:116 JLINK_IsHalted()  returns FALSE (0001ms, 0663ms total)
T2D9C 001:119 JLINK_IsHalted()  returns FALSE (0001ms, 0663ms total)
T2D9C 001:122 JLINK_IsHalted()  returns FALSE (0001ms, 0663ms total)
T2D9C 001:125 JLINK_IsHalted() -- CPU_ReadMem(2 bytes @ 0x20000000)  returns TRUE (0008ms, 0670ms total)
T2D9C 001:133 JLINK_ReadReg(R15 (PC))  returns 0x20000000 (0000ms, 0662ms total)
T2D9C 001:133 JLINK_ClrBPEx(BPHandle = 0x00000009)  returns 0x00 (0000ms, 0662ms total)
T2D9C 001:133 JLINK_ReadReg(R0)  returns 0x00000000 (0000ms, 0662ms total)
T2D9C 001:135 JLINK_WriteMem(0x20000164, 0x0400 Bytes, ...) - Data: F8 D1 10 BD 00 08 01 40 2D E9 F0 4F 91 B0 FE 48 ... -- CPU_WriteMem(1024 bytes @ 0x20000164)  returns 0x400 (0011ms, 0673ms total)
T2D9C 001:146 JLINK_WriteReg(R0, 0x08001400)  returns 0x00 (0000ms, 0673ms total)
T2D9C 001:146 JLINK_WriteReg(R1, 0x00000400)  returns 0x00 (0000ms, 0673ms total)
T2D9C 001:146 JLINK_WriteReg(R2, 0x20000164)  returns 0x00 (0000ms, 0673ms total)
T2D9C 001:147 JLINK_WriteReg(R3, 0x00000000)  returns 0x00 (0000ms, 0674ms total)
T2D9C 001:147 JLINK_WriteReg(R4, 0x00000000)  returns 0x00 (0000ms, 0674ms total)
T2D9C 001:147 JLINK_WriteReg(R5, 0x00000000)  returns 0x00 (0000ms, 0674ms total)
T2D9C 001:147 JLINK_WriteReg(R6, 0x00000000)  returns 0x00 (0000ms, 0674ms total)
T2D9C 001:147 JLINK_WriteReg(R7, 0x00000000)  returns 0x00 (0000ms, 0674ms total)
T2D9C 001:147 JLINK_WriteReg(R8, 0x00000000)  returns 0x00 (0000ms, 0674ms total)
T2D9C 001:147 JLINK_WriteReg(R9, 0x20000160)  returns 0x00 (0000ms, 0674ms total)
T2D9C 001:147 JLINK_WriteReg(R10, 0x00000000)  returns 0x00 (0000ms, 0674ms total)
T2D9C 001:147 JLINK_WriteReg(R11, 0x00000000)  returns 0x00 (0000ms, 0674ms total)
T2D9C 001:147 JLINK_WriteReg(R12, 0x00000000)  returns 0x00 (0000ms, 0674ms total)
T2D9C 001:147 JLINK_WriteReg(R13 (SP), 0x20001000)  returns 0x00 (0000ms, 0674ms total)
T2D9C 001:147 JLINK_WriteReg(R14, 0x20000001)  returns 0x00 (0000ms, 0674ms total)
T2D9C 001:147 JLINK_WriteReg(R15 (PC), 0x200000F4)  returns 0x00 (0000ms, 0674ms total)
T2D9C 001:147 JLINK_WriteReg(XPSR, 0x01000000)  returns 0x00 (0000ms, 0674ms total)
T2D9C 001:147 JLINK_WriteReg(MSP, 0x20001000)  returns 0x00 (0000ms, 0674ms total)
T2D9C 001:147 JLINK_WriteReg(PSP, 0x20001000)  returns 0x00 (0000ms, 0674ms total)
T2D9C 001:147 JLINK_WriteReg(CFBP, 0x00000000)  returns 0x00 (0000ms, 0674ms total)
T2D9C 001:147 JLINK_SetBPEx(Addr = 0x20000000, Type = 0xFFFFFFF2)  returns 0x0000000A (0000ms, 0674ms total)
T2D9C 001:147 JLINK_Go() -- CPU_ReadMem(4 bytes @ 0xE0001000) (0006ms, 0680ms total)
T2D9C 001:153 JLINK_IsHalted()  returns FALSE (0001ms, 0681ms total)
T2D9C 001:156 JLINK_IsHalted()  returns FALSE (0001ms, 0681ms total)
T2D9C 001:159 JLINK_IsHalted()  returns FALSE (0001ms, 0681ms total)
T2D9C 001:162 JLINK_IsHalted()  returns FALSE (0001ms, 0681ms total)
T2D9C 001:165 JLINK_IsHalted()  returns FALSE (0001ms, 0681ms total)
T2D9C 001:168 JLINK_IsHalted()  returns FALSE (0001ms, 0681ms total)
T2D9C 001:171 JLINK_IsHalted()  returns FALSE (0001ms, 0681ms total)
T2D9C 001:175 JLINK_IsHalted()  returns FALSE (0001ms, 0681ms total)
T2D9C 001:178 JLINK_IsHalted()  returns FALSE (0001ms, 0681ms total)
T2D9C 001:181 JLINK_IsHalted()  returns FALSE (0001ms, 0681ms total)
T2D9C 001:189 JLINK_IsHalted() -- CPU_ReadMem(2 bytes @ 0x20000000)  returns TRUE (0007ms, 0687ms total)
T2D9C 001:196 JLINK_ReadReg(R15 (PC))  returns 0x20000000 (0000ms, 0680ms total)
T2D9C 001:196 JLINK_ClrBPEx(BPHandle = 0x0000000A)  returns 0x00 (0000ms, 0680ms total)
T2D9C 001:196 JLINK_ReadReg(R0)  returns 0x00000000 (0000ms, 0680ms total)
T2D9C 001:197 JLINK_WriteMem(0x20000164, 0x0400 Bytes, ...) - Data: 5A FF 06 46 C2 E0 00 00 04 05 00 20 98 03 00 20 ... -- CPU_WriteMem(1024 bytes @ 0x20000164)  returns 0x400 (0011ms, 0691ms total)
T2D9C 001:209 JLINK_WriteReg(R0, 0x08001800)  returns 0x00 (0000ms, 0691ms total)
T2D9C 001:209 JLINK_WriteReg(R1, 0x00000400)  returns 0x00 (0000ms, 0691ms total)
T2D9C 001:209 JLINK_WriteReg(R2, 0x20000164)  returns 0x00 (0000ms, 0691ms total)
T2D9C 001:209 JLINK_WriteReg(R3, 0x00000000)  returns 0x00 (0000ms, 0691ms total)
T2D9C 001:209 JLINK_WriteReg(R4, 0x00000000)  returns 0x00 (0000ms, 0691ms total)
T2D9C 001:209 JLINK_WriteReg(R5, 0x00000000)  returns 0x00 (0000ms, 0691ms total)
T2D9C 001:209 JLINK_WriteReg(R6, 0x00000000)  returns 0x00 (0000ms, 0691ms total)
T2D9C 001:209 JLINK_WriteReg(R7, 0x00000000)  returns 0x00 (0000ms, 0691ms total)
T2D9C 001:209 JLINK_WriteReg(R8, 0x00000000)  returns 0x00 (0000ms, 0691ms total)
T2D9C 001:209 JLINK_WriteReg(R9, 0x20000160)  returns 0x00 (0000ms, 0691ms total)
T2D9C 001:209 JLINK_WriteReg(R10, 0x00000000)  returns 0x00 (0000ms, 0691ms total)
T2D9C 001:209 JLINK_WriteReg(R11, 0x00000000)  returns 0x00 (0000ms, 0691ms total)
T2D9C 001:209 JLINK_WriteReg(R12, 0x00000000)  returns 0x00 (0000ms, 0691ms total)
T2D9C 001:209 JLINK_WriteReg(R13 (SP), 0x20001000)  returns 0x00 (0000ms, 0691ms total)
T2D9C 001:209 JLINK_WriteReg(R14, 0x20000001)  returns 0x00 (0000ms, 0691ms total)
T2D9C 001:209 JLINK_WriteReg(R15 (PC), 0x200000F4)  returns 0x00 (0000ms, 0691ms total)
T2D9C 001:209 JLINK_WriteReg(XPSR, 0x01000000)  returns 0x00 (0000ms, 0691ms total)
T2D9C 001:209 JLINK_WriteReg(MSP, 0x20001000)  returns 0x00 (0000ms, 0691ms total)
T2D9C 001:209 JLINK_WriteReg(PSP, 0x20001000)  returns 0x00 (0000ms, 0691ms total)
T2D9C 001:209 JLINK_WriteReg(CFBP, 0x00000000)  returns 0x00 (0000ms, 0691ms total)
T2D9C 001:209 JLINK_SetBPEx(Addr = 0x20000000, Type = 0xFFFFFFF2)  returns 0x0000000B (0000ms, 0691ms total)
T2D9C 001:209 JLINK_Go() -- CPU_ReadMem(4 bytes @ 0xE0001000) (0005ms, 0696ms total)
T2D9C 001:214 JLINK_IsHalted()  returns FALSE (0002ms, 0698ms total)
T2D9C 001:218 JLINK_IsHalted()  returns FALSE (0001ms, 0697ms total)
T2D9C 001:221 JLINK_IsHalted()  returns FALSE (0001ms, 0697ms total)
T2D9C 001:224 JLINK_IsHalted()  returns FALSE (0001ms, 0697ms total)
T2D9C 001:228 JLINK_IsHalted()  returns FALSE (0001ms, 0697ms total)
T2D9C 001:231 JLINK_IsHalted()  returns FALSE (0001ms, 0697ms total)
T2D9C 001:234 JLINK_IsHalted()  returns FALSE (0001ms, 0697ms total)
T2D9C 001:237 JLINK_IsHalted()  returns FALSE (0001ms, 0697ms total)
T2D9C 001:240 JLINK_IsHalted()  returns FALSE (0001ms, 0697ms total)
T2D9C 001:243 JLINK_IsHalted()  returns FALSE (0001ms, 0697ms total)
T2D9C 001:246 JLINK_IsHalted() -- CPU_ReadMem(2 bytes @ 0x20000000)  returns TRUE (0007ms, 0703ms total)
T2D9C 001:253 JLINK_ReadReg(R15 (PC))  returns 0x20000000 (0000ms, 0696ms total)
T2D9C 001:253 JLINK_ClrBPEx(BPHandle = 0x0000000B)  returns 0x00 (0000ms, 0696ms total)
T2D9C 001:253 JLINK_ReadReg(R0)  returns 0x00000000 (0000ms, 0696ms total)
T2D9C 001:255 JLINK_WriteMem(0x20000164, 0x0400 Bytes, ...) - Data: A0 4F 04 DB 57 48 00 88 B0 F5 A8 4F 10 DD 55 48 ... -- CPU_WriteMem(1024 bytes @ 0x20000164)  returns 0x400 (0011ms, 0707ms total)
T2D9C 001:267 JLINK_WriteReg(R0, 0x08001C00)  returns 0x00 (0000ms, 0707ms total)
T2D9C 001:267 JLINK_WriteReg(R1, 0x00000400)  returns 0x00 (0000ms, 0707ms total)
T2D9C 001:267 JLINK_WriteReg(R2, 0x20000164)  returns 0x00 (0000ms, 0707ms total)
T2D9C 001:267 JLINK_WriteReg(R3, 0x00000000)  returns 0x00 (0000ms, 0707ms total)
T2D9C 001:267 JLINK_WriteReg(R4, 0x00000000)  returns 0x00 (0000ms, 0707ms total)
T2D9C 001:267 JLINK_WriteReg(R5, 0x00000000)  returns 0x00 (0000ms, 0707ms total)
T2D9C 001:267 JLINK_WriteReg(R6, 0x00000000)  returns 0x00 (0000ms, 0707ms total)
T2D9C 001:267 JLINK_WriteReg(R7, 0x00000000)  returns 0x00 (0000ms, 0707ms total)
T2D9C 001:267 JLINK_WriteReg(R8, 0x00000000)  returns 0x00 (0000ms, 0707ms total)
T2D9C 001:267 JLINK_WriteReg(R9, 0x20000160)  returns 0x00 (0000ms, 0707ms total)
T2D9C 001:267 JLINK_WriteReg(R10, 0x00000000)  returns 0x00 (0000ms, 0707ms total)
T2D9C 001:267 JLINK_WriteReg(R11, 0x00000000)  returns 0x00 (0000ms, 0707ms total)
T2D9C 001:267 JLINK_WriteReg(R12, 0x00000000)  returns 0x00 (0000ms, 0707ms total)
T2D9C 001:267 JLINK_WriteReg(R13 (SP), 0x20001000)  returns 0x00 (0000ms, 0707ms total)
T2D9C 001:267 JLINK_WriteReg(R14, 0x20000001)  returns 0x00 (0000ms, 0707ms total)
T2D9C 001:267 JLINK_WriteReg(R15 (PC), 0x200000F4)  returns 0x00 (0000ms, 0707ms total)
T2D9C 001:267 JLINK_WriteReg(XPSR, 0x01000000)  returns 0x00 (0000ms, 0707ms total)
T2D9C 001:267 JLINK_WriteReg(MSP, 0x20001000)  returns 0x00 (0000ms, 0707ms total)
T2D9C 001:267 JLINK_WriteReg(PSP, 0x20001000)  returns 0x00 (0000ms, 0707ms total)
T2D9C 001:267 JLINK_WriteReg(CFBP, 0x00000000)  returns 0x00 (0000ms, 0707ms total)
T2D9C 001:267 JLINK_SetBPEx(Addr = 0x20000000, Type = 0xFFFFFFF2)  returns 0x0000000C (0000ms, 0707ms total)
T2D9C 001:267 JLINK_Go() -- CPU_ReadMem(4 bytes @ 0xE0001000) (0006ms, 0713ms total)
T2D9C 001:273 JLINK_IsHalted()  returns FALSE (0002ms, 0715ms total)
T2D9C 001:277 JLINK_IsHalted()  returns FALSE (0001ms, 0714ms total)
T2D9C 001:280 JLINK_IsHalted()  returns FALSE (0001ms, 0714ms total)
T2D9C 001:283 JLINK_IsHalted()  returns FALSE (0001ms, 0714ms total)
T2D9C 001:286 JLINK_IsHalted()  returns FALSE (0001ms, 0714ms total)
T2D9C 001:289 JLINK_IsHalted()  returns FALSE (0001ms, 0714ms total)
T2D9C 001:296 JLINK_IsHalted()  returns FALSE (0001ms, 0714ms total)
T2D9C 001:299 JLINK_IsHalted()  returns FALSE (0001ms, 0714ms total)
T2D9C 001:302 JLINK_IsHalted()  returns FALSE (0001ms, 0714ms total)
T2D9C 001:305 JLINK_IsHalted() -- CPU_ReadMem(2 bytes @ 0x20000000)  returns TRUE (0007ms, 0720ms total)
T2D9C 001:312 JLINK_ReadReg(R15 (PC))  returns 0x20000000 (0000ms, 0713ms total)
T2D9C 001:312 JLINK_ClrBPEx(BPHandle = 0x0000000C)  returns 0x00 (0000ms, 0713ms total)
T2D9C 001:312 JLINK_ReadReg(R0)  returns 0x00000000 (0000ms, 0713ms total)
T2D9C 001:314 JLINK_WriteMem(0x20000164, 0x0400 Bytes, ...) - Data: 00 20 02 40 2D E9 FE 4F 05 46 8B 46 17 46 98 46 ... -- CPU_WriteMem(1024 bytes @ 0x20000164)  returns 0x400 (0011ms, 0724ms total)
T2D9C 001:325 JLINK_WriteReg(R0, 0x08002000)  returns 0x00 (0000ms, 0724ms total)
T2D9C 001:325 JLINK_WriteReg(R1, 0x00000400)  returns 0x00 (0000ms, 0724ms total)
T2D9C 001:325 JLINK_WriteReg(R2, 0x20000164)  returns 0x00 (0000ms, 0724ms total)
T2D9C 001:325 JLINK_WriteReg(R3, 0x00000000)  returns 0x00 (0000ms, 0724ms total)
T2D9C 001:325 JLINK_WriteReg(R4, 0x00000000)  returns 0x00 (0000ms, 0724ms total)
T2D9C 001:325 JLINK_WriteReg(R5, 0x00000000)  returns 0x00 (0000ms, 0724ms total)
T2D9C 001:325 JLINK_WriteReg(R6, 0x00000000)  returns 0x00 (0000ms, 0724ms total)
T2D9C 001:325 JLINK_WriteReg(R7, 0x00000000)  returns 0x00 (0000ms, 0724ms total)
T2D9C 001:325 JLINK_WriteReg(R8, 0x00000000)  returns 0x00 (0000ms, 0724ms total)
T2D9C 001:325 JLINK_WriteReg(R9, 0x20000160)  returns 0x00 (0001ms, 0725ms total)
T2D9C 001:326 JLINK_WriteReg(R10, 0x00000000)  returns 0x00 (0000ms, 0725ms total)
T2D9C 001:326 JLINK_WriteReg(R11, 0x00000000)  returns 0x00 (0000ms, 0725ms total)
T2D9C 001:326 JLINK_WriteReg(R12, 0x00000000)  returns 0x00 (0000ms, 0725ms total)
T2D9C 001:326 JLINK_WriteReg(R13 (SP), 0x20001000)  returns 0x00 (0000ms, 0725ms total)
T2D9C 001:326 JLINK_WriteReg(R14, 0x20000001)  returns 0x00 (0000ms, 0725ms total)
T2D9C 001:326 JLINK_WriteReg(R15 (PC), 0x200000F4)  returns 0x00 (0000ms, 0725ms total)
T2D9C 001:326 JLINK_WriteReg(XPSR, 0x01000000)  returns 0x00 (0000ms, 0725ms total)
T2D9C 001:326 JLINK_WriteReg(MSP, 0x20001000)  returns 0x00 (0000ms, 0725ms total)
T2D9C 001:326 JLINK_WriteReg(PSP, 0x20001000)  returns 0x00 (0000ms, 0725ms total)
T2D9C 001:326 JLINK_WriteReg(CFBP, 0x00000000)  returns 0x00 (0000ms, 0725ms total)
T2D9C 001:326 JLINK_SetBPEx(Addr = 0x20000000, Type = 0xFFFFFFF2)  returns 0x0000000D (0000ms, 0725ms total)
T2D9C 001:326 JLINK_Go() -- CPU_ReadMem(4 bytes @ 0xE0001000) (0005ms, 0730ms total)
T2D9C 001:332 JLINK_IsHalted()  returns FALSE (0001ms, 0731ms total)
T2D9C 001:335 JLINK_IsHalted()  returns FALSE (0001ms, 0731ms total)
T2D9C 001:338 JLINK_IsHalted()  returns FALSE (0001ms, 0731ms total)
T2D9C 001:341 JLINK_IsHalted()  returns FALSE (0001ms, 0731ms total)
T2D9C 001:344 JLINK_IsHalted()  returns FALSE (0001ms, 0731ms total)
T2D9C 001:347 JLINK_IsHalted()  returns FALSE (0001ms, 0731ms total)
T2D9C 001:350 JLINK_IsHalted()  returns FALSE (0001ms, 0731ms total)
T2D9C 001:354 JLINK_IsHalted()  returns FALSE (0001ms, 0731ms total)
T2D9C 001:357 JLINK_IsHalted()  returns FALSE (0001ms, 0731ms total)
T2D9C 001:360 JLINK_IsHalted()  returns FALSE (0001ms, 0731ms total)
T2D9C 001:363 JLINK_IsHalted() -- CPU_ReadMem(2 bytes @ 0x20000000)  returns TRUE (0008ms, 0738ms total)
T2D9C 001:371 JLINK_ReadReg(R15 (PC))  returns 0x20000000 (0000ms, 0730ms total)
T2D9C 001:371 JLINK_ClrBPEx(BPHandle = 0x0000000D)  returns 0x00 (0000ms, 0730ms total)
T2D9C 001:371 JLINK_ReadReg(R0)  returns 0x00000000 (0000ms, 0730ms total)
T2D9C 001:373 JLINK_WriteMem(0x20000164, 0x0400 Bytes, ...) - Data: 75 E0 DF F8 1C 81 D8 F8 00 80 28 EA 00 08 DF F8 ... -- CPU_WriteMem(1024 bytes @ 0x20000164)  returns 0x400 (0011ms, 0741ms total)
T2D9C 001:384 JLINK_WriteReg(R0, 0x08002400)  returns 0x00 (0001ms, 0742ms total)
T2D9C 001:385 JLINK_WriteReg(R1, 0x00000400)  returns 0x00 (0000ms, 0742ms total)
T2D9C 001:385 JLINK_WriteReg(R2, 0x20000164)  returns 0x00 (0000ms, 0742ms total)
T2D9C 001:385 JLINK_WriteReg(R3, 0x00000000)  returns 0x00 (0000ms, 0742ms total)
T2D9C 001:385 JLINK_WriteReg(R4, 0x00000000)  returns 0x00 (0000ms, 0742ms total)
T2D9C 001:385 JLINK_WriteReg(R5, 0x00000000)  returns 0x00 (0000ms, 0742ms total)
T2D9C 001:385 JLINK_WriteReg(R6, 0x00000000)  returns 0x00 (0000ms, 0742ms total)
T2D9C 001:385 JLINK_WriteReg(R7, 0x00000000)  returns 0x00 (0000ms, 0742ms total)
T2D9C 001:385 JLINK_WriteReg(R8, 0x00000000)  returns 0x00 (0000ms, 0742ms total)
T2D9C 001:385 JLINK_WriteReg(R9, 0x20000160)  returns 0x00 (0000ms, 0742ms total)
T2D9C 001:385 JLINK_WriteReg(R10, 0x00000000)  returns 0x00 (0000ms, 0742ms total)
T2D9C 001:385 JLINK_WriteReg(R11, 0x00000000)  returns 0x00 (0000ms, 0742ms total)
T2D9C 001:385 JLINK_WriteReg(R12, 0x00000000)  returns 0x00 (0000ms, 0742ms total)
T2D9C 001:385 JLINK_WriteReg(R13 (SP), 0x20001000)  returns 0x00 (0000ms, 0742ms total)
T2D9C 001:385 JLINK_WriteReg(R14, 0x20000001)  returns 0x00 (0000ms, 0742ms total)
T2D9C 001:385 JLINK_WriteReg(R15 (PC), 0x200000F4)  returns 0x00 (0000ms, 0742ms total)
T2D9C 001:385 JLINK_WriteReg(XPSR, 0x01000000)  returns 0x00 (0000ms, 0742ms total)
T2D9C 001:385 JLINK_WriteReg(MSP, 0x20001000)  returns 0x00 (0000ms, 0742ms total)
T2D9C 001:385 JLINK_WriteReg(PSP, 0x20001000)  returns 0x00 (0000ms, 0742ms total)
T2D9C 001:385 JLINK_WriteReg(CFBP, 0x00000000)  returns 0x00 (0000ms, 0742ms total)
T2D9C 001:385 JLINK_SetBPEx(Addr = 0x20000000, Type = 0xFFFFFFF2)  returns 0x0000000E (0000ms, 0742ms total)
T2D9C 001:385 JLINK_Go() -- CPU_ReadMem(4 bytes @ 0xE0001000) (0006ms, 0748ms total)
T2D9C 001:391 JLINK_IsHalted()  returns FALSE (0002ms, 0750ms total)
T2D9C 001:395 JLINK_IsHalted()  returns FALSE (0001ms, 0749ms total)
T2D9C 001:398 JLINK_IsHalted()  returns FALSE (0001ms, 0749ms total)
T2D9C 001:401 JLINK_IsHalted()  returns FALSE (0001ms, 0749ms total)
T2D9C 001:404 JLINK_IsHalted()  returns FALSE (0001ms, 0749ms total)
T2D9C 001:411 JLINK_IsHalted()  returns FALSE (0001ms, 0749ms total)
T2D9C 001:414 JLINK_IsHalted()  returns FALSE (0001ms, 0749ms total)
T2D9C 001:417 JLINK_IsHalted()  returns FALSE (0001ms, 0749ms total)
T2D9C 001:420 JLINK_IsHalted()  returns FALSE (0001ms, 0749ms total)
T2D9C 001:423 JLINK_IsHalted() -- CPU_ReadMem(2 bytes @ 0x20000000)  returns TRUE (0007ms, 0755ms total)
T2D9C 001:430 JLINK_ReadReg(R15 (PC))  returns 0x20000000 (0000ms, 0748ms total)
T2D9C 001:430 JLINK_ClrBPEx(BPHandle = 0x0000000E)  returns 0x00 (0000ms, 0748ms total)
T2D9C 001:430 JLINK_ReadReg(R0)  returns 0x00000000 (0000ms, 0748ms total)
T2D9C 001:431 JLINK_WriteMem(0x20000164, 0x0400 Bytes, ...) - Data: 00 90 00 24 A0 46 A1 46 00 25 00 27 04 2E 43 D0 ... -- CPU_WriteMem(1024 bytes @ 0x20000164)  returns 0x400 (0012ms, 0760ms total)
T2D9C 001:443 JLINK_WriteReg(R0, 0x08002800)  returns 0x00 (0000ms, 0760ms total)
T2D9C 001:443 JLINK_WriteReg(R1, 0x00000400)  returns 0x00 (0000ms, 0760ms total)
T2D9C 001:443 JLINK_WriteReg(R2, 0x20000164)  returns 0x00 (0000ms, 0760ms total)
T2D9C 001:443 JLINK_WriteReg(R3, 0x00000000)  returns 0x00 (0000ms, 0760ms total)
T2D9C 001:443 JLINK_WriteReg(R4, 0x00000000)  returns 0x00 (0000ms, 0760ms total)
T2D9C 001:443 JLINK_WriteReg(R5, 0x00000000)  returns 0x00 (0000ms, 0760ms total)
T2D9C 001:443 JLINK_WriteReg(R6, 0x00000000)  returns 0x00 (0000ms, 0760ms total)
T2D9C 001:443 JLINK_WriteReg(R7, 0x00000000)  returns 0x00 (0000ms, 0760ms total)
T2D9C 001:443 JLINK_WriteReg(R8, 0x00000000)  returns 0x00 (0000ms, 0760ms total)
T2D9C 001:443 JLINK_WriteReg(R9, 0x20000160)  returns 0x00 (0000ms, 0760ms total)
T2D9C 001:443 JLINK_WriteReg(R10, 0x00000000)  returns 0x00 (0000ms, 0760ms total)
T2D9C 001:443 JLINK_WriteReg(R11, 0x00000000)  returns 0x00 (0000ms, 0760ms total)
T2D9C 001:443 JLINK_WriteReg(R12, 0x00000000)  returns 0x00 (0000ms, 0760ms total)
T2D9C 001:443 JLINK_WriteReg(R13 (SP), 0x20001000)  returns 0x00 (0000ms, 0760ms total)
